T96E8 000:007.691   SEGGER J-Link V9.56 Log File
T96E8 000:007.785   DLL Compiled: Jul  1 2026 16:46:42
T96E8 000:007.790   Logging started @ 2026-08-24 10:30
T96E8 000:007.794   Process: C:\Keil_v5\Keil_ARM\UV4\UV4.exe
T96E8 000:007.805 - 7.798ms 
T96E8 000:007.816 JLINK_SetWarnOutHandler(...)
T96E8 000:007.820 - 0.006ms 
T96E8 000:007.828 JLINK_OpenEx(...)
T96E8 000:011.982   Firmware: J-Link V9 compiled Dec  8 2023 20:16:22
T96E8 000:012.687   Firmware: J-Link V9 compiled Dec  8 2023 20:16:22
T96E8 000:012.808   Decompressing FW timestamp took 89 us
T96E8 000:019.353   Hardware: V9.70
T96E8 000:019.367   S/N: 602719630
T96E8 000:019.373   OEM: SEGGER
T96E8 000:019.379   Feature(s): GDB, RDI, FlashBP, FlashDL, JFlash
T96E8 000:019.989   Bootloader: (FW returned invalid version)
T96E8 000:020.850   TELNET listener socket opened on port 19021
T96E8 000:021.049   WEBSRV WEBSRV_Init(): Starting webserver thread(s)
T96E8 000:021.188   WEBSRV Webserver running on local port 19080
T96E8 000:021.319   Looking for J-Link GUI Server exe at: C:\Keil_v5\Keil_ARM\ARM\Segger\JLinkGUIServer.exe
T96E8 000:021.466   Looking for J-Link GUI Server exe at: C:\Program Files\SEGGER\JLink_V956\JLinkGUIServer.exe
T96E8 000:021.522   Forking J-Link GUI Server: C:\Program Files\SEGGER\JLink_V956\JLinkGUIServer.exe
T96E8 000:023.899   J-Link GUI Server info: "J-Link GUI server V9.56 "
T96E8 000:025.062 - 17.220ms returns "O.K."
T96E8 000:025.107 JLINK_GetEmuCaps()
T96E8 000:025.119 - 0.008ms returns 0xB9FF7BBF
T96E8 000:025.128 JLINK_TIF_GetAvailable(...)
T96E8 000:025.369 - 0.241ms 
T96E8 000:025.385 JLINK_SetErrorOutHandler(...)
T96E8 000:025.395 - 0.010ms 
T96E8 000:025.438 JLINK_ExecCommand("ProjectFile = "C:\Users\91620\Desktop\wpy\work\cc15000\cc15000\cc15000\01代码\和充电模块通信\can\MDK-ARM\JLinkSettings.ini"", ...). 
T96E8 000:040.526   Ref file found at: C:\Keil_v5\Keil_ARM\ARM\Segger\JLinkDevices.ref
T96E8 000:040.713   REF file references invalid XML file: C:\Program Files\SEGGER\JLink_V956\JLinkDevices.xml
T96E8 000:041.008 - 15.577ms returns 0x00
T96E8 000:041.043 JLINK_ExecCommand("Device = STM32G473VETx", ...). 
T96E8 000:041.982   Flash bank @ 0x08000000: SFL: Parsing sectorization info from ELF file
T96E8 000:041.996     FlashDevice.SectorInfo[0]: .SectorSize = 0x00000800, .SectorStartAddr = 0x00000000
T96E8 000:042.003   FlashBank @0x08000000: Sectorization info from SFL ELF file ignored because sectorization override from DLL / XML file is active.
T96E8 000:042.207   Device "STM32G473VE" selected.
T96E8 000:042.431 - 1.387ms returns 0x00
T96E8 000:042.449   ERROR: Unknown command
T96E8 000:042.457 JLINK_GetHardwareVersion()
T96E8 000:042.463 - 0.004ms returns 97000
T96E8 000:042.469 JLINK_GetDLLVersion()
T96E8 000:042.473 - 0.004ms returns 95600
T96E8 000:042.482 JLINK_GetOEMString(...)
T96E8 000:042.487 JLINK_GetFirmwareString(...)
T96E8 000:042.491 - 0.004ms 
T96E8 000:042.510 JLINK_GetDLLVersion()
T96E8 000:042.514 - 0.004ms returns 95600
T96E8 000:042.519 JLINK_GetCompileDateTime()
T96E8 000:042.523 - 0.004ms 
T96E8 000:042.533 JLINK_GetFirmwareString(...)
T96E8 000:042.537 - 0.004ms 
T96E8 000:042.545 JLINK_GetHardwareVersion()
T96E8 000:042.549 - 0.004ms returns 97000
T96E8 000:042.556 JLINK_GetSN()
T96E8 000:042.560 - 0.004ms returns 602719630
T96E8 000:042.568 JLINK_GetOEMString(...)
T96E8 000:042.582 JLINK_TIF_Select(JLINKARM_TIF_SWD)
T96E8 000:043.516 - 0.934ms returns 0x00
T96E8 000:043.530 JLINK_HasError()
T96E8 000:043.544 JLINK_SetSpeed(100)
T96E8 000:043.634 - 0.093ms 
T96E8 000:043.641 JLINK_GetId()
T96E8 000:043.860   InitTarget() start
T96E8 000:043.871    J-Link Script File: Executing InitTarget()
T96E8 000:044.066   SWD selected. Executing JTAG -> SWD switching sequence.
T96E8 000:052.755   DAP initialized successfully.
T96E8 000:091.070   InitTarget() end - Took 47.1ms
T96E8 000:094.455   Found SW-DP with ID 0x2BA01477
T96E8 000:105.243   DPIDR: 0x2BA01477
T96E8 000:105.267   CoreSight SoC-400 or earlier
T96E8 000:105.280   Scanning AP map to find all available APs
T96E8 000:108.782   AP[1]: Stopped AP scan as end of AP map has been reached
T96E8 000:108.808   AP[0]: AHB-AP (IDR: 0x24770011, ADDR: 0x00000000)
T96E8 000:108.818   Iterating through AP map to find AHB-AP to use
T96E8 000:114.410   AP[0]: Core found
T96E8 000:114.422   AP[0]: AHB-AP ROM base: 0xE00FF000
T96E8 000:117.294   CPUID register: 0x410FC241. Implementer code: 0x41 (ARM)
T96E8 000:117.311   Found Cortex-M4 r0p1, Little endian.
T96E8 000:117.628   -- Max. mem block: 0x00010C20
T96E8 000:118.640   CPU_ReadMem(4 bytes @ 0xE000EDF0)
T96E8 000:121.945   CPU_ReadMem(4 bytes @ 0xE0002000)
T96E8 000:125.121   FPUnit: 6 code (BP) slots and 2 literal slots
T96E8 000:125.128   CPU_ReadMem(4 bytes @ 0xE000EDFC)
T96E8 000:128.402   CPU_WriteMem(4 bytes @ 0xE000EDFC)
T96E8 000:131.601   CPU_ReadMem(4 bytes @ 0xE0001000)
T96E8 000:134.883   CPU_WriteMem(4 bytes @ 0xE0001000)
T96E8 000:138.123   CPU_ReadMem(4 bytes @ 0xE000ED88)
T96E8 000:141.430   CPU_WriteMem(4 bytes @ 0xE000ED88)
T96E8 000:144.644   CPU_ReadMem(4 bytes @ 0xE000ED88)
T96E8 000:147.772   CPU_WriteMem(4 bytes @ 0xE000ED88)
T96E8 000:151.042   CoreSight components:
T96E8 000:151.058   ROMTbl[0] @ E00FF000
T96E8 000:151.065   CPU_ReadMem(64 bytes @ 0xE00FF000)
T96E8 000:161.424   CPU_ReadMem(32 bytes @ 0xE000EFE0)
T96E8 000:168.046   [0][0]: E000E000 CID B105E00D PID 000BB00C SCS-M7
T96E8 000:168.064   CPU_ReadMem(32 bytes @ 0xE0001FE0)
T96E8 000:174.601   [0][1]: E0001000 CID B105E00D PID 003BB002 DWT
T96E8 000:174.617   CPU_ReadMem(32 bytes @ 0xE0002FE0)
T96E8 000:181.031   [0][2]: E0002000 CID B105E00D PID 002BB003 FPB
T96E8 000:181.045   CPU_ReadMem(32 bytes @ 0xE0000FE0)
T96E8 000:187.607   [0][3]: E0000000 CID B105E00D PID 003BB001 ITM
T96E8 000:187.618   CPU_ReadMem(32 bytes @ 0xE0040FE0)
T96E8 000:194.179   [0][4]: E0040000 CID B105900D PID 000BB9A1 TPIU
T96E8 000:194.187   CPU_ReadMem(32 bytes @ 0xE0041FE0)
T96E8 000:200.760   [0][5]: E0041000 CID B105900D PID 000BB925 ETM
T96E8 000:201.588 - 157.940ms returns 0x2BA01477
T96E8 000:201.678 JLINK_GetDLLVersion()
T96E8 000:201.682 - 0.004ms returns 95600
T96E8 000:201.692 JLINK_CORE_GetFound()
T96E8 000:201.696 - 0.004ms returns 0xE0000FF
T96E8 000:201.702 JLINK_GetDebugInfo(0x100 = JLINKARM_ROM_TABLE_ADDR_INDEX)
T96E8 000:201.706   Value=0xE00FF000
T96E8 000:201.713 - 0.011ms returns 0
T96E8 000:201.724 JLINK_GetDebugInfo(0x100 = JLINKARM_ROM_TABLE_ADDR_INDEX)
T96E8 000:201.728   Value=0xE00FF000
T96E8 000:201.733 - 0.009ms returns 0
T96E8 000:201.738 JLINK_GetDebugInfo(0x101 = JLINKARM_DEBUG_INFO_ETM_ADDR_INDEX)
T96E8 000:201.742   Value=0xE0041000
T96E8 000:201.748 - 0.009ms returns 0
T96E8 000:201.756 JLINK_ReadMemEx(0xE0041FD0, 0x20 Bytes, Flags = 0x02000004)
T96E8 000:201.773   CPU_ReadMem(32 bytes @ 0xE0041FD0)
T96E8 000:208.271   Data:  04 00 00 00 00 00 00 00 00 00 00 00 00 00 00 00 ...
T96E8 000:208.278 - 6.522ms returns 32 (0x20)
T96E8 000:208.286 JLINK_GetDebugInfo(0x102 = JLINKARM_DEBUG_INFO_MTB_ADDR_INDEX)
T96E8 000:208.290   Value=0x00000000
T96E8 000:208.300 - 0.014ms returns 0
T96E8 000:208.305 JLINK_GetDebugInfo(0x103 = JLINKARM_DEBUG_INFO_TPIU_ADDR_INDEX)
T96E8 000:208.309   Value=0xE0040000
T96E8 000:208.314 - 0.009ms returns 0
T96E8 000:208.319 JLINK_GetDebugInfo(0x104 = JLINKARM_DEBUG_INFO_ITM_ADDR_INDEX)
T96E8 000:208.323   Value=0xE0000000
T96E8 000:208.329 - 0.009ms returns 0
T96E8 000:208.334 JLINK_GetDebugInfo(0x105 = JLINKARM_DEBUG_INFO_DWT_ADDR_INDEX)
T96E8 000:208.338   Value=0xE0001000
T96E8 000:208.343 - 0.009ms returns 0
T96E8 000:208.348 JLINK_GetDebugInfo(0x106 = JLINKARM_DEBUG_INFO_FPB_ADDR_INDEX)
T96E8 000:208.352   Value=0xE0002000
T96E8 000:208.357 - 0.009ms returns 0
T96E8 000:208.362 JLINK_GetDebugInfo(0x107 = JLINKARM_DEBUG_INFO_NVIC_ADDR_INDEX)
T96E8 000:208.366   Value=0xE000E000
T96E8 000:208.372 - 0.009ms returns 0
T96E8 000:208.376 JLINK_GetDebugInfo(0x10C = JLINKARM_DEBUG_INFO_DBG_ADDR_INDEX)
T96E8 000:208.380   Value=0xE000EDF0
T96E8 000:208.386 - 0.009ms returns 0
T96E8 000:208.397 JLINK_GetDebugInfo(0x01 = Unknown)
T96E8 000:208.402   Value=0x00000001
T96E8 000:208.408 - 0.011ms returns 0
T96E8 000:208.413 JLINK_ReadMemU32(0xE000ED00, 0x1 Items)
T96E8 000:208.418   CPU_ReadMem(4 bytes @ 0xE000ED00)
T96E8 000:211.653   Data:  41 C2 0F 41
T96E8 000:211.685   Debug reg: CPUID
T96E8 000:211.691 - 3.278ms returns 1 (0x1)
T96E8 000:211.700 JLINK_GetDebugInfo(0x10F = JLINKARM_DEBUG_INFO_HAS_CORTEX_M_SECURITY_EXT_INDEX)
T96E8 000:211.705   Value=0x00000000
T96E8 000:211.711 - 0.011ms returns 0
T96E8 000:211.716 JLINK_HasError()
T96E8 000:211.722 JLINK_SetResetType(JLINKARM_CM3_RESET_TYPE_NORMAL)
T96E8 000:211.726 - 0.004ms returns JLINKARM_CM3_RESET_TYPE_NORMAL
T96E8 000:211.736 JLINK_Reset()
T96E8 000:211.749   JLINK_GetResetTypeDesc
T96E8 000:211.753   - 0.004ms 
T96E8 000:211.768   Reset type: NORMAL (https://kb.segger.com/J-Link_Reset_Strategies)
T96E8 000:211.779   CPU is running
T96E8 000:211.786   CPU_WriteMem(4 bytes @ 0xE000EDF0)
T96E8 000:214.934   CPU is running
T96E8 000:214.943   CPU_WriteMem(4 bytes @ 0xE000EDFC)
T96E8 000:218.161   Reset: Halt core after reset via DEMCR.VC_CORERESET.
T96E8 000:219.146   Reset: Reset device via AIRCR.SYSRESETREQ.
T96E8 000:219.206   CPU is running
T96E8 000:219.213   CPU_WriteMem(4 bytes @ 0xE000ED0C)
T96E8 000:276.434   CPU_ReadMem(4 bytes @ 0xE000EDF0)
T96E8 000:279.647   CPU_ReadMem(4 bytes @ 0xE000EDF0)
T96E8 000:336.569   CPU_WriteMem(4 bytes @ 0xE000EDFC)
T96E8 000:345.178   CPU_ReadMem(4 bytes @ 0xE000EDF0)
T96E8 000:401.682   CPU_WriteMem(4 bytes @ 0xE0002000)
T96E8 000:405.229   CPU_ReadMem(4 bytes @ 0xE000EDFC)
T96E8 000:409.109   CPU_ReadMem(4 bytes @ 0xE0001000)
T96E8 000:412.596 - 200.858ms 
T96E8 000:412.868 JLINK_HasError()
T96E8 000:412.891 JLINK_ReadReg(R15 (PC))
T96E8 000:412.897 - 0.018ms returns 0x08000278
T96E8 000:412.902 JLINK_ReadReg(XPSR)
T96E8 000:412.906 - 0.004ms returns 0x01000000
T96E8 000:412.911 JLINK_Halt()
T96E8 000:412.915 - 0.003ms returns 0x00
T96E8 000:412.921 JLINK_ReadMemU32(0xE000EDF0, 0x1 Items)
T96E8 000:412.932   CPU_ReadMem(4 bytes @ 0xE000EDF0)
T96E8 000:416.399   Data:  03 00 03 00
T96E8 000:416.436   Debug reg: DHCSR
T96E8 000:416.443 - 3.521ms returns 1 (0x1)
T96E8 000:416.454 JLINK_WriteU32(0xE000EDF0, 0xA05F0003)
T96E8 000:416.458   Debug reg: DHCSR
T96E8 000:416.727   CPU_WriteMem(4 bytes @ 0xE000EDF0)
T96E8 000:420.156 - 3.700ms returns 0 (0x00000000)
T96E8 000:420.193 JLINK_WriteU32(0xE000EDFC, 0x01000000)
T96E8 000:420.199   Debug reg: DEMCR
T96E8 000:420.213   CPU_WriteMem(4 bytes @ 0xE000EDFC)
T96E8 000:423.730 - 3.536ms returns 0 (0x00000000)
T96E8 000:423.795 JLINK_GetHWStatus(...)
T96E8 000:423.987 - 0.191ms returns 0
T96E8 000:424.017 JLINK_GetNumBPUnits(Type = 0xFFFFFF00)
T96E8 000:424.022 - 0.005ms returns 0x06
T96E8 000:424.027 JLINK_GetNumBPUnits(Type = 0xF0)
T96E8 000:424.031 - 0.004ms returns 0x2000
T96E8 000:424.036 JLINK_GetNumWPUnits()
T96E8 000:424.040 - 0.003ms returns 4
T96E8 000:424.052 JLINK_GetSpeed()
T96E8 000:424.056 - 0.004ms returns 100
T96E8 000:424.065 JLINK_ReadMemU32(0xE000E004, 0x1 Items)
T96E8 000:424.074   CPU_ReadMem(4 bytes @ 0xE000E004)
T96E8 000:427.723   Data:  03 00 00 00
T96E8 000:427.757 - 3.692ms returns 1 (0x1)
T96E8 000:427.768 JLINK_ReadMemU32(0xE000E004, 0x1 Items)
T96E8 000:427.778   CPU_ReadMem(4 bytes @ 0xE000E004)
T96E8 000:431.346   Data:  03 00 00 00
T96E8 000:431.379 - 3.610ms returns 1 (0x1)
T96E8 000:431.412 JLINK_WriteMemEx(0xE0001000, 0x0000001C Bytes, Flags = 0x02000004)
T96E8 000:431.416   Data:  01 00 00 00 00 00 00 00 00 00 00 00 00 00 00 00 ...
T96E8 000:431.432   CPU_WriteMem(28 bytes @ 0xE0001000)
T96E8 000:437.507 - 6.094ms returns 0x1C
T96E8 000:437.586 JLINK_HasError()
T96E8 000:437.593 JLINK_ReadReg(R15 (PC))
T96E8 000:437.598 - 0.005ms returns 0x08000278
T96E8 000:437.603 JLINK_ReadReg(XPSR)
T96E8 000:437.607 - 0.004ms returns 0x01000000
T96E8 000:440.081 JLINK_ReadMemEx(0xE0001004, 0x4 Bytes, Flags = 0x02000000)
T96E8 000:440.103   Data:  00 00 00 00
T96E8 000:440.114   Debug reg: DWT_CYCCNT
T96E8 000:440.120 - 0.040ms returns 4 (0x4)
T96E8 000:513.677 JLINK_HasError()
T96E8 000:513.708 JLINK_SetResetType(JLINKARM_CM3_RESET_TYPE_NORMAL)
T96E8 000:513.714 - 0.005ms returns JLINKARM_CM3_RESET_TYPE_NORMAL
T96E8 000:513.719 JLINK_Reset()
T96E8 000:513.730   JLINK_GetResetTypeDesc
T96E8 000:513.735   - 0.005ms 
T96E8 000:513.749   Reset type: NORMAL (https://kb.segger.com/J-Link_Reset_Strategies)
T96E8 000:513.756   CPU_WriteMem(4 bytes @ 0xE000EDF0)
T96E8 000:517.200   CPU_WriteMem(4 bytes @ 0xE000EDFC)
T96E8 000:521.069   Reset: Halt core after reset via DEMCR.VC_CORERESET.
T96E8 000:522.299   Reset: Reset device via AIRCR.SYSRESETREQ.
T96E8 000:522.341   CPU_WriteMem(4 bytes @ 0xE000ED0C)
T96E8 000:579.821   CPU_ReadMem(4 bytes @ 0xE000EDF0)
T96E8 000:583.001   CPU_ReadMem(4 bytes @ 0xE000EDF0)
T96E8 000:586.344   CPU_WriteMem(4 bytes @ 0xE000EDFC)
T96E8 000:594.882   CPU_ReadMem(4 bytes @ 0xE000EDF0)
T96E8 000:651.986   CPU_WriteMem(4 bytes @ 0xE0002000)
T96E8 000:655.472   CPU_ReadMem(4 bytes @ 0xE000EDFC)
T96E8 000:658.830   CPU_ReadMem(4 bytes @ 0xE0001000)
T96E8 000:662.202 - 148.482ms 
T96E8 000:662.259 JLINK_HasError()
T96E8 000:662.266 JLINK_ReadReg(R15 (PC))
T96E8 000:662.272 - 0.006ms returns 0x08000278
T96E8 000:662.277 JLINK_ReadReg(XPSR)
T96E8 000:662.281 - 0.004ms returns 0x01000000
T96E8 001:544.580 JLINK_HasError()
T96E8 001:544.646 JLINK_ReadReg(R0)
T96E8 001:548.396 - 3.755ms returns 0x00000000
T96E8 001:548.421 JLINK_ReadReg(R1)
T96E8 001:548.427 - 0.005ms returns 0x00000000
T96E8 001:548.432 JLINK_ReadReg(R2)
T96E8 001:548.437 - 0.004ms returns 0x00000000
T96E8 001:548.442 JLINK_ReadReg(R3)
T96E8 001:548.447 - 0.004ms returns 0x00000000
T96E8 001:548.452 JLINK_ReadReg(R4)
T96E8 001:548.457 - 0.004ms returns 0x00000000
T96E8 001:548.462 JLINK_ReadReg(R5)
T96E8 001:548.467 - 0.004ms returns 0x00000000
T96E8 001:548.472 JLINK_ReadReg(R6)
T96E8 001:548.476 - 0.004ms returns 0x00000000
T96E8 001:548.482 JLINK_ReadReg(R7)
T96E8 001:548.486 - 0.004ms returns 0x00000000
T96E8 001:548.491 JLINK_ReadReg(R8)
T96E8 001:548.496 - 0.004ms returns 0x00000000
T96E8 001:548.501 JLINK_ReadReg(R9)
T96E8 001:548.506 - 0.004ms returns 0x00000000
T96E8 001:548.511 JLINK_ReadReg(R10)
T96E8 001:548.516 - 0.004ms returns 0x00000000
T96E8 001:548.521 JLINK_ReadReg(R11)
T96E8 001:548.525 - 0.004ms returns 0x00000000
T96E8 001:548.531 JLINK_ReadReg(R12)
T96E8 001:548.535 - 0.004ms returns 0x00000000
T96E8 001:548.541 JLINK_ReadReg(R13 (SP))
T96E8 001:548.546 - 0.004ms returns 0x20000B90
T96E8 001:548.551 JLINK_ReadReg(R14)
T96E8 001:548.555 - 0.004ms returns 0xFFFFFFFF
T96E8 001:548.561 JLINK_ReadReg(R15 (PC))
T96E8 001:548.568 - 0.007ms returns 0x08000278
T96E8 001:548.576 JLINK_ReadReg(XPSR)
T96E8 001:548.583 - 0.006ms returns 0x01000000
T96E8 001:548.591 JLINK_ReadReg(MSP)
T96E8 001:548.598 - 0.006ms returns 0x20000B90
T96E8 001:548.606 JLINK_ReadReg(PSP)
T96E8 001:548.612 - 0.006ms returns 0x00000000
T96E8 001:548.620 JLINK_ReadReg(CFBP)
T96E8 001:548.626 - 0.006ms returns 0x00000000
T96E8 001:548.637 JLINK_ReadReg(FPSCR)
T96E8 001:635.473 - 86.835ms returns 0x00000000
T96E8 001:635.547 JLINK_ReadReg(FPS0)
T96E8 001:635.554 - 0.007ms returns 0x00000000
T96E8 001:635.560 JLINK_ReadReg(FPS1)
T96E8 001:635.564 - 0.004ms returns 0x00000000
T96E8 001:635.568 JLINK_ReadReg(FPS2)
T96E8 001:635.572 - 0.004ms returns 0x00000000
T96E8 001:635.577 JLINK_ReadReg(FPS3)
T96E8 001:635.581 - 0.003ms returns 0x00000000
T96E8 001:635.585 JLINK_ReadReg(FPS4)
T96E8 001:635.589 - 0.003ms returns 0x00000000
T96E8 001:635.594 JLINK_ReadReg(FPS5)
T96E8 001:635.598 - 0.003ms returns 0x00000000
T96E8 001:635.602 JLINK_ReadReg(FPS6)
T96E8 001:635.606 - 0.003ms returns 0x00000000
T96E8 001:635.611 JLINK_ReadReg(FPS7)
T96E8 001:635.615 - 0.003ms returns 0x00000000
T96E8 001:635.619 JLINK_ReadReg(FPS8)
T96E8 001:635.623 - 0.003ms returns 0x00000000
T96E8 001:635.628 JLINK_ReadReg(FPS9)
T96E8 001:635.632 - 0.003ms returns 0x00000000
T96E8 001:635.682 JLINK_ReadReg(FPS10)
T96E8 001:635.690 - 0.008ms returns 0x00000000
T96E8 001:635.695 JLINK_ReadReg(FPS11)
T96E8 001:635.699 - 0.003ms returns 0x00000000
T96E8 001:635.703 JLINK_ReadReg(FPS12)
T96E8 001:635.707 - 0.004ms returns 0x00000000
T96E8 001:635.712 JLINK_ReadReg(FPS13)
T96E8 001:635.716 - 0.003ms returns 0x00000000
T96E8 001:635.720 JLINK_ReadReg(FPS14)
T96E8 001:635.724 - 0.003ms returns 0x00000000
T96E8 001:635.729 JLINK_ReadReg(FPS15)
T96E8 001:635.733 - 0.003ms returns 0x00000000
T96E8 001:635.738 JLINK_ReadReg(FPS16)
T96E8 001:635.741 - 0.003ms returns 0x00000000
T96E8 001:635.746 JLINK_ReadReg(FPS17)
T96E8 001:635.750 - 0.003ms returns 0x00000000
T96E8 001:635.755 JLINK_ReadReg(FPS18)
T96E8 001:635.758 - 0.003ms returns 0x00000000
T96E8 001:635.763 JLINK_ReadReg(FPS19)
T96E8 001:635.767 - 0.003ms returns 0x00000000
T96E8 001:635.772 JLINK_ReadReg(FPS20)
T96E8 001:635.775 - 0.003ms returns 0x00000000
T96E8 001:635.780 JLINK_ReadReg(FPS21)
T96E8 001:635.784 - 0.003ms returns 0x00000000
T96E8 001:635.789 JLINK_ReadReg(FPS22)
T96E8 001:635.792 - 0.003ms returns 0x00000000
T96E8 001:635.797 JLINK_ReadReg(FPS23)
T96E8 001:635.801 - 0.003ms returns 0x00000000
T96E8 001:635.806 JLINK_ReadReg(FPS24)
T96E8 001:635.810 - 0.003ms returns 0x00000000
T96E8 001:635.814 JLINK_ReadReg(FPS25)
T96E8 001:635.818 - 0.003ms returns 0x00000000
T96E8 001:635.823 JLINK_ReadReg(FPS26)
T96E8 001:635.826 - 0.003ms returns 0x00000000
T96E8 001:635.831 JLINK_ReadReg(FPS27)
T96E8 001:635.835 - 0.003ms returns 0x00000000
T96E8 001:635.840 JLINK_ReadReg(FPS28)
T96E8 001:635.844 - 0.003ms returns 0x00000000
T96E8 001:635.848 JLINK_ReadReg(FPS29)
T96E8 001:635.852 - 0.003ms returns 0x00000000
T96E8 001:635.857 JLINK_ReadReg(FPS30)
T96E8 001:635.861 - 0.003ms returns 0x00000000
T96E8 001:635.865 JLINK_ReadReg(FPS31)
T96E8 001:635.869 - 0.003ms returns 0x00000000
T77E0 001:659.456 JLINK_ReadMemEx(0x08000278, 0x2 Bytes, Flags = 0x02000000)
T77E0 001:659.537   CPU_ReadMem(64 bytes @ 0x08000240)
T77E0 001:670.722    -- Updating C cache (64 bytes @ 0x08000240)
T77E0 001:670.750    -- Read from C cache (2 bytes @ 0x08000278)
T77E0 001:670.759   Data:  09 48
T77E0 001:670.767 - 11.311ms returns 2 (0x2)
T77E0 001:670.785 JLINK_HasError()
T77E0 001:670.792 JLINK_SetBPEx(Addr = 0x08002E6C, Type = 0xFFFFFFF2)
T77E0 001:670.799 - 0.007ms returns 0x00000001
T77E0 001:670.805 JLINK_HasError()
T77E0 001:670.810 JLINK_HasError()
T77E0 001:670.816 JLINK_Go()
T77E0 001:670.825   CPU_WriteMem(4 bytes @ 0xE0002000)
T77E0 001:674.210   CPU_ReadMem(4 bytes @ 0xE0001000)
T77E0 001:677.837   CPU_WriteMem(4 bytes @ 0xE0002008)
T77E0 001:677.857   CPU_WriteMem(4 bytes @ 0xE000200C)
T77E0 001:677.882   CPU_WriteMem(4 bytes @ 0xE0002010)
T77E0 001:677.889   CPU_WriteMem(4 bytes @ 0xE0002014)
T77E0 001:677.896   CPU_WriteMem(4 bytes @ 0xE0002018)
T77E0 001:677.902   CPU_WriteMem(4 bytes @ 0xE000201C)
T77E0 001:695.902   CPU_WriteMem(4 bytes @ 0xE0001004)
T77E0 001:705.248   Memory map 'after startup completion point' is active
T77E0 001:705.270 - 34.453ms 
T77E0 001:806.304 JLINK_HasError()
T77E0 001:806.330 JLINK_IsHalted()
T77E0 001:859.419 - 53.087ms returns TRUE
T77E0 001:859.484 JLINK_HasError()
T77E0 001:859.490 JLINK_Halt()
T77E0 001:859.495 - 0.004ms returns 0x00
T77E0 001:859.500 JLINK_IsHalted()
T77E0 001:859.504 - 0.003ms returns TRUE
T77E0 001:859.509 JLINK_IsHalted()
T77E0 001:859.513 - 0.004ms returns TRUE
T77E0 001:859.518 JLINK_IsHalted()
T77E0 001:859.522 - 0.003ms returns TRUE
T77E0 001:859.527 JLINK_HasError()
T77E0 001:859.532 JLINK_ReadReg(R15 (PC))
T77E0 001:859.538 - 0.005ms returns 0x08002E6C
T77E0 001:859.543 JLINK_ReadReg(XPSR)
T77E0 001:859.547 - 0.004ms returns 0x21000000
T77E0 001:859.556 JLINK_HasError()
T77E0 001:859.561 JLINK_ClrBPEx(BPHandle = 0x00000001)
T77E0 001:859.566 - 0.005ms returns 0x00
T77E0 001:859.571 JLINK_HasError()
T77E0 001:859.576 JLINK_HasError()
T77E0 001:859.581 JLINK_ReadMemU32(0xE000ED30, 0x1 Items)
T77E0 001:859.596   CPU_ReadMem(4 bytes @ 0xE000ED30)
T77E0 001:862.822   Data:  02 00 00 00
T77E0 001:862.841 - 3.259ms returns 1 (0x1)
T77E0 001:862.849 JLINK_ReadMemU32(0xE0001028, 0x1 Items)
T77E0 001:862.856   CPU_ReadMem(4 bytes @ 0xE0001028)
T77E0 001:866.088   Data:  00 00 00 00
T77E0 001:866.105   Debug reg: DWT_FUNC[0]
T77E0 001:866.112 - 3.262ms returns 1 (0x1)
T77E0 001:866.119 JLINK_ReadMemU32(0xE0001038, 0x1 Items)
T77E0 001:866.126   CPU_ReadMem(4 bytes @ 0xE0001038)
T77E0 001:869.437   Data:  00 02 00 00
T77E0 001:869.453   Debug reg: DWT_FUNC[1]
T77E0 001:869.459 - 3.340ms returns 1 (0x1)
T77E0 001:869.467 JLINK_ReadMemU32(0xE0001048, 0x1 Items)
T77E0 001:869.474   CPU_ReadMem(4 bytes @ 0xE0001048)
T77E0 001:872.597   Data:  00 00 00 00
T77E0 001:872.639   Debug reg: DWT_FUNC[2]
T77E0 001:872.646 - 3.179ms returns 1 (0x1)
T77E0 001:872.653 JLINK_ReadMemU32(0xE0001058, 0x1 Items)
T77E0 001:872.660   CPU_ReadMem(4 bytes @ 0xE0001058)
T77E0 001:875.818   Data:  00 00 00 00
T77E0 001:875.831   Debug reg: DWT_FUNC[3]
T77E0 001:875.837 - 3.183ms returns 1 (0x1)
T77E0 001:875.870 JLINK_HasError()
T77E0 001:875.875 JLINK_ReadReg(R0)
T77E0 001:875.880 - 0.005ms returns 0x20000590
T77E0 001:875.885 JLINK_ReadReg(R1)
T77E0 001:875.889 - 0.004ms returns 0x20000790
T77E0 001:875.894 JLINK_ReadReg(R2)
T77E0 001:875.898 - 0.003ms returns 0x20000790
T77E0 001:875.902 JLINK_ReadReg(R3)
T77E0 001:875.906 - 0.003ms returns 0x20000790
T77E0 001:875.911 JLINK_ReadReg(R4)
T77E0 001:875.915 - 0.003ms returns 0x00000000
T77E0 001:875.920 JLINK_ReadReg(R5)
T77E0 001:875.923 - 0.003ms returns 0x20000530
T77E0 001:875.928 JLINK_ReadReg(R6)
T77E0 001:875.932 - 0.003ms returns 0x00000000
T77E0 001:875.937 JLINK_ReadReg(R7)
T77E0 001:875.941 - 0.003ms returns 0x00000000
T77E0 001:875.945 JLINK_ReadReg(R8)
T77E0 001:875.949 - 0.003ms returns 0x00000000
T77E0 001:875.954 JLINK_ReadReg(R9)
T77E0 001:875.958 - 0.003ms returns 0x00000000
T77E0 001:875.962 JLINK_ReadReg(R10)
T77E0 001:875.966 - 0.003ms returns 0x08002F34
T77E0 001:875.971 JLINK_ReadReg(R11)
T77E0 001:875.975 - 0.003ms returns 0x00000000
T77E0 001:875.979 JLINK_ReadReg(R12)
T77E0 001:875.983 - 0.003ms returns 0x20000570
T77E0 001:875.988 JLINK_ReadReg(R13 (SP))
T77E0 001:875.992 - 0.004ms returns 0x20000B90
T77E0 001:875.997 JLINK_ReadReg(R14)
T77E0 001:876.000 - 0.003ms returns 0x08000267
T77E0 001:876.005 JLINK_ReadReg(R15 (PC))
T77E0 001:876.009 - 0.004ms returns 0x08002E6C
T77E0 001:876.014 JLINK_ReadReg(XPSR)
T77E0 001:876.018 - 0.004ms returns 0x21000000
T77E0 001:876.022 JLINK_ReadReg(MSP)
T77E0 001:876.026 - 0.003ms returns 0x20000B90
T77E0 001:876.031 JLINK_ReadReg(PSP)
T77E0 001:876.035 - 0.003ms returns 0x00000000
T77E0 001:876.040 JLINK_ReadReg(CFBP)
T77E0 001:876.043 - 0.003ms returns 0x04000000
T77E0 001:876.048 JLINK_ReadReg(FPSCR)
T77E0 001:962.917 - 86.860ms returns 0x03000000
T77E0 001:963.011 JLINK_ReadReg(FPS0)
T77E0 001:963.017 - 0.011ms returns 0x00000000
T77E0 001:963.022 JLINK_ReadReg(FPS1)
T77E0 001:963.026 - 0.004ms returns 0x00000000
T77E0 001:963.031 JLINK_ReadReg(FPS2)
T77E0 001:963.035 - 0.003ms returns 0x00000000
T77E0 001:963.040 JLINK_ReadReg(FPS3)
T77E0 001:963.044 - 0.004ms returns 0x00000000
T77E0 001:963.048 JLINK_ReadReg(FPS4)
T77E0 001:963.052 - 0.003ms returns 0x00000000
T77E0 001:963.057 JLINK_ReadReg(FPS5)
T77E0 001:963.061 - 0.003ms returns 0x00000000
T77E0 001:963.065 JLINK_ReadReg(FPS6)
T77E0 001:963.069 - 0.003ms returns 0x00000000
T77E0 001:963.074 JLINK_ReadReg(FPS7)
T77E0 001:963.078 - 0.003ms returns 0x00000000
T77E0 001:963.082 JLINK_ReadReg(FPS8)
T77E0 001:963.086 - 0.003ms returns 0x00000000
T77E0 001:963.091 JLINK_ReadReg(FPS9)
T77E0 001:963.095 - 0.003ms returns 0x00000000
T77E0 001:963.099 JLINK_ReadReg(FPS10)
T77E0 001:963.103 - 0.003ms returns 0x00000000
T77E0 001:963.109 JLINK_ReadReg(FPS11)
T77E0 001:963.113 - 0.003ms returns 0x00000000
T77E0 001:963.117 JLINK_ReadReg(FPS12)
T77E0 001:963.121 - 0.003ms returns 0x00000000
T77E0 001:963.130 JLINK_ReadReg(FPS13)
T77E0 001:963.136 - 0.006ms returns 0x00000000
T77E0 001:963.140 JLINK_ReadReg(FPS14)
T77E0 001:963.144 - 0.003ms returns 0x00000000
T77E0 001:963.149 JLINK_ReadReg(FPS15)
T77E0 001:963.153 - 0.003ms returns 0x00000000
T77E0 001:963.158 JLINK_ReadReg(FPS16)
T77E0 001:963.161 - 0.003ms returns 0x00000000
T77E0 001:963.166 JLINK_ReadReg(FPS17)
T77E0 001:963.170 - 0.003ms returns 0x00000000
T77E0 001:963.174 JLINK_ReadReg(FPS18)
T77E0 001:963.178 - 0.003ms returns 0x00000000
T77E0 001:963.183 JLINK_ReadReg(FPS19)
T77E0 001:963.187 - 0.003ms returns 0x00000000
T77E0 001:963.192 JLINK_ReadReg(FPS20)
T77E0 001:963.195 - 0.003ms returns 0x00000000
T77E0 001:963.200 JLINK_ReadReg(FPS21)
T77E0 001:963.204 - 0.003ms returns 0x00000000
T77E0 001:963.208 JLINK_ReadReg(FPS22)
T77E0 001:963.212 - 0.003ms returns 0x00000000
T77E0 001:963.217 JLINK_ReadReg(FPS23)
T77E0 001:963.221 - 0.004ms returns 0x00000000
T77E0 001:963.226 JLINK_ReadReg(FPS24)
T77E0 001:963.230 - 0.003ms returns 0x00000000
T77E0 001:963.235 JLINK_ReadReg(FPS25)
T77E0 001:963.238 - 0.003ms returns 0x00000000
T77E0 001:963.243 JLINK_ReadReg(FPS26)
T77E0 001:963.247 - 0.003ms returns 0x00000000
T77E0 001:963.252 JLINK_ReadReg(FPS27)
T77E0 001:963.256 - 0.003ms returns 0x00000000
T77E0 001:963.260 JLINK_ReadReg(FPS28)
T77E0 001:963.264 - 0.003ms returns 0x00000000
T77E0 001:963.269 JLINK_ReadReg(FPS29)
T77E0 001:963.272 - 0.003ms returns 0x00000000
T77E0 001:963.277 JLINK_ReadReg(FPS30)
T77E0 001:963.281 - 0.003ms returns 0x00000000
T77E0 001:963.285 JLINK_ReadReg(FPS31)
T77E0 001:963.289 - 0.003ms returns 0x00000000
T96E8 001:963.754 JLINK_ReadMemEx(0xE000ED28, 0x4 Bytes, Flags = 0x02000000)
T96E8 001:963.776   CPU_ReadMem(4 bytes @ 0xE000ED28)
T96E8 001:967.056   Data:  00 00 00 00
T96E8 001:967.086 - 3.331ms returns 4 (0x4)
T96E8 007:993.669 JLINK_ReadMemEx(0x200004F8, 0x1 Bytes, Flags = 0x02000000)
T96E8 007:993.707   CPU_ReadMem(64 bytes @ 0x200004C0)
T96E8 008:004.157    -- Updating C cache (64 bytes @ 0x200004C0)
T96E8 008:004.192    -- Read from C cache (1 bytes @ 0x200004F8)
T96E8 008:004.200   Data:  00
T96E8 008:004.207 - 10.538ms returns 1 (0x1)
T96E8 008:004.297 JLINK_ReadMemEx(0x200004FC, 0x4 Bytes, Flags = 0x02000000)
T96E8 008:004.305    -- Read from C cache (4 bytes @ 0x200004FC)
T96E8 008:004.312   Data:  00 00 00 00
T96E8 008:004.317 - 0.020ms returns 4 (0x4)
T96E8 008:004.324 JLINK_ReadMemEx(0x20000500, 0x4 Bytes, Flags = 0x02000000)
T96E8 008:004.331   CPU_ReadMem(64 bytes @ 0x20000500)
T96E8 008:014.662    -- Updating C cache (64 bytes @ 0x20000500)
T96E8 008:014.685    -- Read from C cache (4 bytes @ 0x20000500)
T96E8 008:014.693   Data:  00 00 00 00
T96E8 008:014.700 - 10.376ms returns 4 (0x4)
T96E8 008:014.721 JLINK_ReadMemEx(0x20000504, 0x4 Bytes, Flags = 0x02000000)
T96E8 008:014.728    -- Read from C cache (4 bytes @ 0x20000504)
T96E8 008:014.733   Data:  00 00 00 00
T96E8 008:014.739 - 0.018ms returns 4 (0x4)
T96E8 008:014.745 JLINK_ReadMemEx(0x20000508, 0x4 Bytes, Flags = 0x02000000)
T96E8 008:014.750    -- Read from C cache (4 bytes @ 0x20000508)
T96E8 008:014.757   Data:  00 00 00 00
T96E8 008:014.762 - 0.016ms returns 4 (0x4)
T96E8 008:014.769 JLINK_ReadMemEx(0x2000050C, 0x4 Bytes, Flags = 0x02000000)
T96E8 008:014.773    -- Read from C cache (4 bytes @ 0x2000050C)
T96E8 008:014.778   Data:  00 00 00 00
T96E8 008:014.789 - 0.020ms returns 4 (0x4)
T96E8 008:014.797 JLINK_ReadMemEx(0x20000510, 0x1 Bytes, Flags = 0x02000000)
T96E8 008:014.801    -- Read from C cache (1 bytes @ 0x20000510)
T96E8 008:014.806   Data:  00
T96E8 008:014.812 - 0.015ms returns 1 (0x1)
T96E8 008:014.818 JLINK_ReadMemEx(0x20000511, 0x1 Bytes, Flags = 0x02000000)
T96E8 008:014.822    -- Read from C cache (1 bytes @ 0x20000511)
T96E8 008:014.828   Data:  00
T96E8 008:014.833 - 0.015ms returns 1 (0x1)
T96E8 008:014.839 JLINK_ReadMemEx(0x20000512, 0x1 Bytes, Flags = 0x02000000)
T96E8 008:014.843    -- Read from C cache (1 bytes @ 0x20000512)
T96E8 008:014.854   Data:  00
T96E8 008:014.860 - 0.021ms returns 1 (0x1)
T96E8 008:014.865 JLINK_ReadMemEx(0x20000513, 0x1 Bytes, Flags = 0x02000000)
T96E8 008:014.870    -- Read from C cache (1 bytes @ 0x20000513)
T96E8 008:014.876   Data:  00
T96E8 008:014.881 - 0.015ms returns 1 (0x1)
T96E8 008:014.887 JLINK_ReadMemEx(0x20000514, 0x1 Bytes, Flags = 0x02000000)
T96E8 008:014.891    -- Read from C cache (1 bytes @ 0x20000514)
T96E8 008:014.897   Data:  00
T96E8 008:014.902 - 0.015ms returns 1 (0x1)
T96E8 008:014.908 JLINK_ReadMemEx(0x20000515, 0x1 Bytes, Flags = 0x02000000)
T96E8 008:014.912    -- Read from C cache (1 bytes @ 0x20000515)
T96E8 008:014.918   Data:  00
T96E8 008:014.923 - 0.015ms returns 1 (0x1)
T96E8 008:014.944 JLINK_ReadMemEx(0x200004F8, 0x1 Bytes, Flags = 0x02000000)
T96E8 008:014.948    -- Read from C cache (1 bytes @ 0x200004F8)
T96E8 008:014.953   Data:  00
T96E8 008:014.959 - 0.015ms returns 1 (0x1)
T96E8 008:014.965 JLINK_ReadMemEx(0x200004FC, 0x4 Bytes, Flags = 0x02000000)
T96E8 008:014.969    -- Read from C cache (4 bytes @ 0x200004FC)
T96E8 008:014.974   Data:  00 00 00 00
T96E8 008:014.981 - 0.015ms returns 4 (0x4)
T96E8 008:014.985 JLINK_ReadMemEx(0x20000500, 0x4 Bytes, Flags = 0x02000000)
T96E8 008:014.989    -- Read from C cache (4 bytes @ 0x20000500)
T96E8 008:014.995   Data:  00 00 00 00
T96E8 008:015.001 - 0.015ms returns 4 (0x4)
T96E8 008:015.006 JLINK_ReadMemEx(0x20000504, 0x4 Bytes, Flags = 0x02000000)
T96E8 008:015.010    -- Read from C cache (4 bytes @ 0x20000504)
T96E8 008:015.016   Data:  00 00 00 00
T96E8 008:015.021 - 0.015ms returns 4 (0x4)
T96E8 008:015.027 JLINK_ReadMemEx(0x20000508, 0x4 Bytes, Flags = 0x02000000)
T96E8 008:015.031    -- Read from C cache (4 bytes @ 0x20000508)
T96E8 008:015.037   Data:  00 00 00 00
T96E8 008:015.042 - 0.015ms returns 4 (0x4)
T96E8 008:015.047 JLINK_ReadMemEx(0x2000050C, 0x4 Bytes, Flags = 0x02000000)
T96E8 008:015.051    -- Read from C cache (4 bytes @ 0x2000050C)
T96E8 008:015.057   Data:  00 00 00 00
T96E8 008:015.062 - 0.015ms returns 4 (0x4)
T96E8 008:015.068 JLINK_ReadMemEx(0x20000510, 0x1 Bytes, Flags = 0x02000000)
T96E8 008:015.072    -- Read from C cache (1 bytes @ 0x20000510)
T96E8 008:015.077   Data:  00
T96E8 008:015.083 - 0.015ms returns 1 (0x1)
T96E8 008:015.088 JLINK_ReadMemEx(0x20000511, 0x1 Bytes, Flags = 0x02000000)
T96E8 008:015.093    -- Read from C cache (1 bytes @ 0x20000511)
T96E8 008:015.098   Data:  00
T96E8 008:015.104 - 0.015ms returns 1 (0x1)
T96E8 008:015.109 JLINK_ReadMemEx(0x20000512, 0x1 Bytes, Flags = 0x02000000)
T96E8 008:015.113    -- Read from C cache (1 bytes @ 0x20000512)
T96E8 008:015.118   Data:  00
T96E8 008:015.125 - 0.015ms returns 1 (0x1)
T96E8 008:015.129 JLINK_ReadMemEx(0x20000513, 0x1 Bytes, Flags = 0x02000000)
T96E8 008:015.133    -- Read from C cache (1 bytes @ 0x20000513)
T96E8 008:015.139   Data:  00
T96E8 008:015.145 - 0.015ms returns 1 (0x1)
T96E8 008:015.149 JLINK_ReadMemEx(0x20000514, 0x1 Bytes, Flags = 0x02000000)
T96E8 008:015.153    -- Read from C cache (1 bytes @ 0x20000514)
T96E8 008:015.159   Data:  00
T96E8 008:015.165 - 0.015ms returns 1 (0x1)
T96E8 008:015.170 JLINK_ReadMemEx(0x20000515, 0x1 Bytes, Flags = 0x02000000)
T96E8 008:015.174    -- Read from C cache (1 bytes @ 0x20000515)
T96E8 008:015.180   Data:  00
T96E8 008:015.185 - 0.015ms returns 1 (0x1)
T96E8 008:019.473 JLINK_ReadMemEx(0x200004F8, 0x1 Bytes, Flags = 0x02000000)
T96E8 008:019.494    -- Read from C cache (1 bytes @ 0x200004F8)
T96E8 008:019.501   Data:  00
T96E8 008:019.509 - 0.036ms returns 1 (0x1)
T96E8 008:019.517 JLINK_ReadMemEx(0x200004FC, 0x4 Bytes, Flags = 0x02000000)
T96E8 008:019.521    -- Read from C cache (4 bytes @ 0x200004FC)
T96E8 008:019.527   Data:  00 00 00 00
T96E8 008:019.533 - 0.016ms returns 4 (0x4)
T96E8 008:019.538 JLINK_ReadMemEx(0x20000500, 0x4 Bytes, Flags = 0x02000000)
T96E8 008:019.542    -- Read from C cache (4 bytes @ 0x20000500)
T96E8 008:019.549   Data:  00 00 00 00
T96E8 008:019.554 - 0.015ms returns 4 (0x4)
T96E8 008:019.601 JLINK_ReadMemEx(0x20000504, 0x4 Bytes, Flags = 0x02000000)
T96E8 008:019.608    -- Read from C cache (4 bytes @ 0x20000504)
T96E8 008:019.613   Data:  00 00 00 00
T96E8 008:019.619 - 0.018ms returns 4 (0x4)
T96E8 008:019.625 JLINK_ReadMemEx(0x20000508, 0x4 Bytes, Flags = 0x02000000)
T96E8 008:019.629    -- Read from C cache (4 bytes @ 0x20000508)
T96E8 008:019.635   Data:  00 00 00 00
T96E8 008:019.641 - 0.015ms returns 4 (0x4)
T96E8 008:019.646 JLINK_ReadMemEx(0x2000050C, 0x4 Bytes, Flags = 0x02000000)
T96E8 008:019.650    -- Read from C cache (4 bytes @ 0x2000050C)
T96E8 008:019.656   Data:  00 00 00 00
T96E8 008:019.661 - 0.016ms returns 4 (0x4)
T96E8 008:019.669 JLINK_ReadMemEx(0x20000510, 0x1 Bytes, Flags = 0x02000000)
T96E8 008:019.673    -- Read from C cache (1 bytes @ 0x20000510)
T96E8 008:019.681   Data:  00
T96E8 008:019.686 - 0.017ms returns 1 (0x1)
T96E8 008:019.692 JLINK_ReadMemEx(0x20000511, 0x1 Bytes, Flags = 0x02000000)
T96E8 008:019.696    -- Read from C cache (1 bytes @ 0x20000511)
T96E8 008:019.701   Data:  00
T96E8 008:019.707 - 0.015ms returns 1 (0x1)
T96E8 008:019.713 JLINK_ReadMemEx(0x20000512, 0x1 Bytes, Flags = 0x02000000)
T96E8 008:019.717    -- Read from C cache (1 bytes @ 0x20000512)
T96E8 008:019.722   Data:  00
T96E8 008:019.728 - 0.015ms returns 1 (0x1)
T96E8 008:019.733 JLINK_ReadMemEx(0x20000513, 0x1 Bytes, Flags = 0x02000000)
T96E8 008:019.737    -- Read from C cache (1 bytes @ 0x20000513)
T96E8 008:019.743   Data:  00
T96E8 008:019.749 - 0.015ms returns 1 (0x1)
T96E8 008:019.753 JLINK_ReadMemEx(0x20000514, 0x1 Bytes, Flags = 0x02000000)
T96E8 008:019.758    -- Read from C cache (1 bytes @ 0x20000514)
T96E8 008:019.764   Data:  00
T96E8 008:019.769 - 0.015ms returns 1 (0x1)
T96E8 008:019.774 JLINK_ReadMemEx(0x20000515, 0x1 Bytes, Flags = 0x02000000)
T96E8 008:019.779    -- Read from C cache (1 bytes @ 0x20000515)
T96E8 008:019.784   Data:  00
T96E8 008:019.790 - 0.015ms returns 1 (0x1)
T96E8 009:843.323 JLINK_HasError()
T96E8 009:843.365 JLINK_SetResetType(JLINKARM_CM3_RESET_TYPE_NORMAL)
T96E8 009:843.370 - 0.005ms returns JLINKARM_CM3_RESET_TYPE_NORMAL
T96E8 009:843.375 JLINK_Reset()
T96E8 009:843.394   Memory map 'before startup completion point' is active
T96E8 009:843.408   JLINK_GetResetTypeDesc
T96E8 009:843.412   - 0.004ms 
T96E8 009:843.420   Reset type: NORMAL (https://kb.segger.com/J-Link_Reset_Strategies)
T96E8 009:843.427   CPU_WriteMem(4 bytes @ 0xE000EDF0)
T96E8 009:846.530   CPU_WriteMem(4 bytes @ 0xE000EDFC)
T96E8 009:849.864   Reset: Halt core after reset via DEMCR.VC_CORERESET.
T96E8 009:850.989   Reset: Reset device via AIRCR.SYSRESETREQ.
T96E8 009:851.003   CPU_WriteMem(4 bytes @ 0xE000ED0C)
T96E8 009:908.034   CPU_ReadMem(4 bytes @ 0xE000EDF0)
T96E8 009:911.481   CPU_ReadMem(4 bytes @ 0xE000EDF0)
T96E8 009:918.264   CPU_WriteMem(4 bytes @ 0xE000EDFC)
T96E8 009:926.941   CPU_ReadMem(4 bytes @ 0xE000EDF0)
T96E8 009:983.523   CPU_WriteMem(4 bytes @ 0xE0002000)
T96E8 009:986.672   CPU_ReadMem(4 bytes @ 0xE000EDFC)
T96E8 009:989.882   CPU_ReadMem(4 bytes @ 0xE0001000)
T96E8 009:992.986 - 149.609ms 
T96E8 009:993.043 JLINK_HasError()
T96E8 009:993.050 JLINK_ReadReg(R15 (PC))
T96E8 009:993.055 - 0.004ms returns 0x08000278
T96E8 009:993.060 JLINK_ReadReg(XPSR)
T96E8 009:993.064 - 0.004ms returns 0x01000000
T96E8 010:034.334 JLINK_HasError()
T96E8 010:034.370 JLINK_ReadReg(R0)
T96E8 010:034.377 - 0.006ms returns 0x00000000
T96E8 010:034.382 JLINK_ReadReg(R1)
T96E8 010:034.386 - 0.004ms returns 0x00000000
T96E8 010:034.390 JLINK_ReadReg(R2)
T96E8 010:034.394 - 0.003ms returns 0x00000000
T96E8 010:034.398 JLINK_ReadReg(R3)
T96E8 010:034.402 - 0.003ms returns 0x00000000
T96E8 010:034.407 JLINK_ReadReg(R4)
T96E8 010:034.411 - 0.003ms returns 0x00000000
T96E8 010:034.416 JLINK_ReadReg(R5)
T96E8 010:034.419 - 0.003ms returns 0x00000000
T96E8 010:034.424 JLINK_ReadReg(R6)
T96E8 010:034.428 - 0.004ms returns 0x00000000
T96E8 010:034.434 JLINK_ReadReg(R7)
T96E8 010:034.437 - 0.003ms returns 0x00000000
T96E8 010:034.510 JLINK_ReadReg(R8)
T96E8 010:034.523 - 0.013ms returns 0x00000000
T96E8 010:034.529 JLINK_ReadReg(R9)
T96E8 010:034.533 - 0.004ms returns 0x00000000
T96E8 010:034.538 JLINK_ReadReg(R10)
T96E8 010:034.542 - 0.003ms returns 0x00000000
T96E8 010:034.546 JLINK_ReadReg(R11)
T96E8 010:034.550 - 0.003ms returns 0x00000000
T96E8 010:034.555 JLINK_ReadReg(R12)
T96E8 010:034.559 - 0.004ms returns 0x00000000
T96E8 010:034.564 JLINK_ReadReg(R13 (SP))
T96E8 010:034.568 - 0.004ms returns 0x20000B90
T96E8 010:034.573 JLINK_ReadReg(R14)
T96E8 010:034.577 - 0.004ms returns 0xFFFFFFFF
T96E8 010:034.582 JLINK_ReadReg(R15 (PC))
T96E8 010:034.586 - 0.004ms returns 0x08000278
T96E8 010:034.590 JLINK_ReadReg(XPSR)
T96E8 010:034.594 - 0.004ms returns 0x01000000
T96E8 010:034.599 JLINK_ReadReg(MSP)
T96E8 010:034.603 - 0.003ms returns 0x20000B90
T96E8 010:034.608 JLINK_ReadReg(PSP)
T96E8 010:034.611 - 0.003ms returns 0x00000000
T96E8 010:034.616 JLINK_ReadReg(CFBP)
T96E8 010:034.620 - 0.004ms returns 0x00000000
T96E8 010:034.626 JLINK_ReadReg(FPSCR)
T96E8 010:121.428 - 86.801ms returns 0x00000000
T96E8 010:121.481 JLINK_ReadReg(FPS0)
T96E8 010:121.487 - 0.006ms returns 0x00000000
T96E8 010:121.492 JLINK_ReadReg(FPS1)
T96E8 010:121.496 - 0.004ms returns 0x00000000
T96E8 010:121.501 JLINK_ReadReg(FPS2)
T96E8 010:121.505 - 0.003ms returns 0x00000000
T96E8 010:121.510 JLINK_ReadReg(FPS3)
T96E8 010:121.514 - 0.003ms returns 0x00000000
T96E8 010:121.518 JLINK_ReadReg(FPS4)
T96E8 010:121.522 - 0.003ms returns 0x00000000
T96E8 010:121.526 JLINK_ReadReg(FPS5)
T96E8 010:121.530 - 0.003ms returns 0x00000000
T96E8 010:121.535 JLINK_ReadReg(FPS6)
T96E8 010:121.539 - 0.003ms returns 0x00000000
T96E8 010:121.543 JLINK_ReadReg(FPS7)
T96E8 010:121.547 - 0.003ms returns 0x00000000
T96E8 010:121.552 JLINK_ReadReg(FPS8)
T96E8 010:121.556 - 0.003ms returns 0x00000000
T96E8 010:121.560 JLINK_ReadReg(FPS9)
T96E8 010:121.564 - 0.003ms returns 0x00000000
T96E8 010:121.569 JLINK_ReadReg(FPS10)
T96E8 010:121.574 - 0.004ms returns 0x00000000
T96E8 010:121.578 JLINK_ReadReg(FPS11)
T96E8 010:121.582 - 0.003ms returns 0x00000000
T96E8 010:121.587 JLINK_ReadReg(FPS12)
T96E8 010:121.591 - 0.003ms returns 0x00000000
T96E8 010:121.596 JLINK_ReadReg(FPS13)
T96E8 010:121.600 - 0.003ms returns 0x00000000
T96E8 010:121.604 JLINK_ReadReg(FPS14)
T96E8 010:121.608 - 0.003ms returns 0x00000000
T96E8 010:121.613 JLINK_ReadReg(FPS15)
T96E8 010:121.617 - 0.003ms returns 0x00000000
T96E8 010:121.621 JLINK_ReadReg(FPS16)
T96E8 010:121.625 - 0.003ms returns 0x00000000
T96E8 010:121.630 JLINK_ReadReg(FPS17)
T96E8 010:121.634 - 0.003ms returns 0x00000000
T96E8 010:121.638 JLINK_ReadReg(FPS18)
T96E8 010:121.642 - 0.003ms returns 0x00000000
T96E8 010:121.646 JLINK_ReadReg(FPS19)
T96E8 010:121.650 - 0.003ms returns 0x00000000
T96E8 010:121.655 JLINK_ReadReg(FPS20)
T96E8 010:121.659 - 0.003ms returns 0x00000000
T96E8 010:121.664 JLINK_ReadReg(FPS21)
T96E8 010:121.668 - 0.003ms returns 0x00000000
T96E8 010:121.672 JLINK_ReadReg(FPS22)
T96E8 010:121.676 - 0.003ms returns 0x00000000
T96E8 010:121.681 JLINK_ReadReg(FPS23)
T96E8 010:121.685 - 0.003ms returns 0x00000000
T96E8 010:121.690 JLINK_ReadReg(FPS24)
T96E8 010:121.694 - 0.003ms returns 0x00000000
T96E8 010:121.698 JLINK_ReadReg(FPS25)
T96E8 010:121.702 - 0.003ms returns 0x00000000
T96E8 010:121.706 JLINK_ReadReg(FPS26)
T96E8 010:121.710 - 0.003ms returns 0x00000000
T96E8 010:121.715 JLINK_ReadReg(FPS27)
T96E8 010:121.719 - 0.003ms returns 0x00000000
T96E8 010:121.723 JLINK_ReadReg(FPS28)
T96E8 010:121.727 - 0.003ms returns 0x00000000
T96E8 010:121.732 JLINK_ReadReg(FPS29)
T96E8 010:121.736 - 0.003ms returns 0x00000000
T96E8 010:121.741 JLINK_ReadReg(FPS30)
T96E8 010:121.745 - 0.003ms returns 0x00000000
T96E8 010:121.749 JLINK_ReadReg(FPS31)
T96E8 010:121.753 - 0.003ms returns 0x00000000
T96E8 010:121.773 JLINK_ReadMemEx(0x200004F8, 0x1 Bytes, Flags = 0x02000000)
T96E8 010:121.785   CPU_ReadMem(64 bytes @ 0x200004C0)
T96E8 010:132.091    -- Updating C cache (64 bytes @ 0x200004C0)
T96E8 010:132.257    -- Read from C cache (1 bytes @ 0x200004F8)
T96E8 010:132.264   Data:  00
T96E8 010:132.270 - 10.498ms returns 1 (0x1)
T96E8 010:132.285 JLINK_ReadMemEx(0x200004FC, 0x4 Bytes, Flags = 0x02000000)
T96E8 010:132.291    -- Read from C cache (4 bytes @ 0x200004FC)
T96E8 010:132.297   Data:  00 00 00 00
T96E8 010:132.302 - 0.018ms returns 4 (0x4)
T96E8 010:132.309 JLINK_ReadMemEx(0x20000500, 0x4 Bytes, Flags = 0x02000000)
T96E8 010:132.316   CPU_ReadMem(64 bytes @ 0x20000500)
T96E8 010:142.662    -- Updating C cache (64 bytes @ 0x20000500)
T96E8 010:142.691    -- Read from C cache (4 bytes @ 0x20000500)
T96E8 010:142.698   Data:  00 00 00 00
T96E8 010:142.704 - 10.394ms returns 4 (0x4)
T96E8 010:142.713 JLINK_ReadMemEx(0x20000504, 0x4 Bytes, Flags = 0x02000000)
T96E8 010:142.718    -- Read from C cache (4 bytes @ 0x20000504)
T96E8 010:142.724   Data:  00 00 00 00
T96E8 010:142.730 - 0.017ms returns 4 (0x4)
T96E8 010:142.736 JLINK_ReadMemEx(0x20000508, 0x4 Bytes, Flags = 0x02000000)
T96E8 010:142.740    -- Read from C cache (4 bytes @ 0x20000508)
T96E8 010:142.746   Data:  00 00 00 00
T96E8 010:142.751 - 0.016ms returns 4 (0x4)
T96E8 010:142.757 JLINK_ReadMemEx(0x2000050C, 0x4 Bytes, Flags = 0x02000000)
T96E8 010:142.762    -- Read from C cache (4 bytes @ 0x2000050C)
T96E8 010:142.767   Data:  00 00 00 00
T96E8 010:142.778 - 0.020ms returns 4 (0x4)
T96E8 010:142.786 JLINK_ReadMemEx(0x20000510, 0x1 Bytes, Flags = 0x02000000)
T96E8 010:142.791    -- Read from C cache (1 bytes @ 0x20000510)
T96E8 010:142.797   Data:  00
T96E8 010:142.802 - 0.015ms returns 1 (0x1)
T96E8 010:142.808 JLINK_ReadMemEx(0x20000511, 0x1 Bytes, Flags = 0x02000000)
T96E8 010:142.812    -- Read from C cache (1 bytes @ 0x20000511)
T96E8 010:142.818   Data:  00
T96E8 010:142.823 - 0.015ms returns 1 (0x1)
T96E8 010:142.829 JLINK_ReadMemEx(0x20000512, 0x1 Bytes, Flags = 0x02000000)
T96E8 010:142.833    -- Read from C cache (1 bytes @ 0x20000512)
T96E8 010:142.838   Data:  00
T96E8 010:142.844 - 0.015ms returns 1 (0x1)
T96E8 010:142.849 JLINK_ReadMemEx(0x20000513, 0x1 Bytes, Flags = 0x02000000)
T96E8 010:142.853    -- Read from C cache (1 bytes @ 0x20000513)
T96E8 010:142.859   Data:  00
T96E8 010:142.865 - 0.015ms returns 1 (0x1)
T96E8 010:142.870 JLINK_ReadMemEx(0x20000514, 0x1 Bytes, Flags = 0x02000000)
T96E8 010:142.874    -- Read from C cache (1 bytes @ 0x20000514)
T96E8 010:142.879   Data:  00
T96E8 010:142.886 - 0.016ms returns 1 (0x1)
T96E8 010:142.890 JLINK_ReadMemEx(0x20000515, 0x1 Bytes, Flags = 0x02000000)
T96E8 010:142.894    -- Read from C cache (1 bytes @ 0x20000515)
T96E8 010:142.901   Data:  00
T96E8 010:142.906 - 0.015ms returns 1 (0x1)
T77E0 010:453.030 JLINK_ReadMemEx(0x08000278, 0x2 Bytes, Flags = 0x02000000)
T77E0 010:453.087   CPU_ReadMem(64 bytes @ 0x08000240)
T77E0 010:463.427    -- Updating C cache (64 bytes @ 0x08000240)
T77E0 010:463.458    -- Read from C cache (2 bytes @ 0x08000278)
T77E0 010:463.466   Data:  09 48
T77E0 010:463.472 - 10.441ms returns 2 (0x2)
T77E0 010:463.480 JLINK_HasError()
T77E0 010:463.486 JLINK_HasError()
T77E0 010:463.490 JLINK_Go()
T77E0 010:467.288   CPU_ReadMem(4 bytes @ 0xE0001000)
T77E0 010:470.721   CPU_WriteMem(4 bytes @ 0xE0002008)
T77E0 010:470.741   CPU_WriteMem(4 bytes @ 0xE000200C)
T77E0 010:470.747   CPU_WriteMem(4 bytes @ 0xE0002010)
T77E0 010:470.754   CPU_WriteMem(4 bytes @ 0xE0002014)
T77E0 010:470.759   CPU_WriteMem(4 bytes @ 0xE0002018)
T77E0 010:470.765   CPU_WriteMem(4 bytes @ 0xE000201C)
T77E0 010:488.757   CPU_WriteMem(4 bytes @ 0xE0001004)
T77E0 010:498.421   Memory map 'after startup completion point' is active
T77E0 010:498.434 - 34.942ms 
T77E0 010:599.531 JLINK_HasError()
T77E0 010:599.559 JLINK_IsHalted()
T77E0 010:603.413 - 3.853ms returns FALSE
T77E0 010:704.583 JLINK_HasError()
T77E0 010:704.610 JLINK_IsHalted()
T77E0 010:708.258 - 3.646ms returns FALSE
T77E0 010:809.451 JLINK_HasError()
T77E0 010:809.525 JLINK_IsHalted()
T77E0 010:813.229 - 3.702ms returns FALSE
T77E0 010:914.260 JLINK_HasError()
T77E0 010:914.290 JLINK_IsHalted()
T77E0 010:917.947 - 3.652ms returns FALSE
T77E0 011:018.338 JLINK_HasError()
T77E0 011:018.366 JLINK_HasError()
T77E0 011:018.372 JLINK_ReadMemU32(0xE0001004, 0x1 Items)
T77E0 011:018.385   CPU_ReadMem(4 bytes @ 0xE0001004)
T77E0 011:021.768   Data:  59 D6 FB 04
T77E0 011:021.784   Debug reg: DWT_CYCCNT
T77E0 011:021.790 - 3.418ms returns 1 (0x1)
T96E8 011:021.850 JLINK_ReadMemEx(0x200004F8, 0x1 Bytes, Flags = 0x02000000)
T96E8 011:021.860   CPU_ReadMem(1 bytes @ 0x200004F8)
T96E8 011:025.057   Data:  02
T96E8 011:025.117 - 3.267ms returns 1 (0x1)
T96E8 011:025.409 JLINK_ReadMemEx(0x200004FC, 0x4 Bytes, Flags = 0x02000000)
T96E8 011:025.421   CPU_ReadMem(4 bytes @ 0x200004FC)
T96E8 011:028.668   Data:  00 00 00 00
T96E8 011:028.730 - 3.320ms returns 4 (0x4)
T96E8 011:028.738 JLINK_ReadMemEx(0x20000500, 0x4 Bytes, Flags = 0x02000000)
T96E8 011:028.744   CPU_ReadMem(4 bytes @ 0x20000500)
T96E8 011:032.065   Data:  00 00 00 00
T96E8 011:032.079 - 3.341ms returns 4 (0x4)
T96E8 011:032.089 JLINK_ReadMemEx(0x20000504, 0x4 Bytes, Flags = 0x02000000)
T96E8 011:032.096   CPU_ReadMem(4 bytes @ 0x20000504)
T96E8 011:035.300   Data:  00 00 00 00
T96E8 011:035.371 - 3.282ms returns 4 (0x4)
T96E8 011:035.378 JLINK_ReadMemEx(0x20000508, 0x4 Bytes, Flags = 0x02000000)
T96E8 011:035.382   CPU_ReadMem(4 bytes @ 0x20000508)
T96E8 011:038.554   Data:  00 00 00 00
T96E8 011:038.570 - 3.192ms returns 4 (0x4)
T96E8 011:038.582 JLINK_ReadMemEx(0x2000050C, 0x4 Bytes, Flags = 0x02000000)
T96E8 011:038.590   CPU_ReadMem(4 bytes @ 0x2000050C)
T96E8 011:041.763   Data:  00 00 00 00
T96E8 011:041.846 - 3.263ms returns 4 (0x4)
T96E8 011:041.861 JLINK_ReadMemEx(0x20000510, 0x1 Bytes, Flags = 0x02000000)
T96E8 011:041.866   CPU_ReadMem(1 bytes @ 0x20000510)
T96E8 011:045.160   Data:  01
T96E8 011:045.170 - 3.310ms returns 1 (0x1)
T96E8 011:045.373 JLINK_ReadMemEx(0x20000511, 0x1 Bytes, Flags = 0x02000000)
T96E8 011:045.383   CPU_ReadMem(1 bytes @ 0x20000511)
T96E8 011:048.483   Data:  00
T96E8 011:048.500 - 3.126ms returns 1 (0x1)
T96E8 011:048.514 JLINK_ReadMemEx(0x20000512, 0x1 Bytes, Flags = 0x02000000)
T96E8 011:048.522   CPU_ReadMem(1 bytes @ 0x20000512)
T96E8 011:051.687   Data:  01
T96E8 011:051.698 - 3.184ms returns 1 (0x1)
T96E8 011:051.912 JLINK_ReadMemEx(0x20000513, 0x1 Bytes, Flags = 0x02000000)
T96E8 011:051.924   CPU_ReadMem(1 bytes @ 0x20000513)
T96E8 011:055.130   Data:  00
T96E8 011:055.198 - 3.285ms returns 1 (0x1)
T96E8 011:055.209 JLINK_ReadMemEx(0x20000514, 0x1 Bytes, Flags = 0x02000000)
T96E8 011:055.214   CPU_ReadMem(1 bytes @ 0x20000514)
T96E8 011:058.301   Data:  00
T96E8 011:058.313 - 3.104ms returns 1 (0x1)
T96E8 011:058.323 JLINK_ReadMemEx(0x20000515, 0x1 Bytes, Flags = 0x02000000)
T96E8 011:058.330   CPU_ReadMem(1 bytes @ 0x20000515)
T96E8 011:061.561   Data:  00
T96E8 011:061.573 - 3.249ms returns 1 (0x1)
T77E0 011:062.441 JLINK_IsHalted()
T77E0 011:066.174 - 3.732ms returns FALSE
T77E0 011:166.898 JLINK_HasError()
T77E0 011:166.925 JLINK_IsHalted()
T77E0 011:170.588 - 3.662ms returns FALSE
T77E0 011:270.874 JLINK_HasError()
T77E0 011:270.916 JLINK_IsHalted()
T77E0 011:274.979 - 4.061ms returns FALSE
T77E0 011:375.294 JLINK_HasError()
T77E0 011:375.336 JLINK_IsHalted()
T77E0 011:379.030 - 3.692ms returns FALSE
T77E0 011:479.401 JLINK_HasError()
T77E0 011:479.439 JLINK_IsHalted()
T77E0 011:483.307 - 3.867ms returns FALSE
T77E0 011:583.622 JLINK_HasError()
T77E0 011:583.661 JLINK_HasError()
T77E0 011:583.666 JLINK_ReadMemU32(0xE0001004, 0x1 Items)
T77E0 011:583.678   Data:  59 D6 FB 04
T77E0 011:583.685   Debug reg: DWT_CYCCNT
T77E0 011:583.691 - 0.024ms returns 1 (0x1)
T96E8 011:583.802 JLINK_ReadMemEx(0x200004F8, 0x1 Bytes, Flags = 0x02000000)
T96E8 011:583.809   CPU_ReadMem(1 bytes @ 0x200004F8)
T96E8 011:587.270   Data:  02
T96E8 011:587.304 - 3.502ms returns 1 (0x1)
T96E8 011:587.680 JLINK_ReadMemEx(0x200004FC, 0x4 Bytes, Flags = 0x02000000)
T96E8 011:587.700   CPU_ReadMem(4 bytes @ 0x200004FC)
T96E8 011:591.300   Data:  00 00 00 00
T96E8 011:591.333 - 3.653ms returns 4 (0x4)
T96E8 011:591.355 JLINK_ReadMemEx(0x20000500, 0x4 Bytes, Flags = 0x02000000)
T96E8 011:591.366   CPU_ReadMem(4 bytes @ 0x20000500)
T96E8 011:595.157   Data:  00 00 00 00
T96E8 011:595.191 - 3.836ms returns 4 (0x4)
T96E8 011:595.209 JLINK_ReadMemEx(0x20000504, 0x4 Bytes, Flags = 0x02000000)
T96E8 011:595.220   CPU_ReadMem(4 bytes @ 0x20000504)
T96E8 011:599.090   Data:  00 00 00 00
T96E8 011:599.121 - 3.911ms returns 4 (0x4)
T96E8 011:599.140 JLINK_ReadMemEx(0x20000508, 0x4 Bytes, Flags = 0x02000000)
T96E8 011:599.151   CPU_ReadMem(4 bytes @ 0x20000508)
T96E8 011:602.844   Data:  00 00 00 00
T96E8 011:602.878 - 3.738ms returns 4 (0x4)
T96E8 011:602.910 JLINK_ReadMemEx(0x2000050C, 0x4 Bytes, Flags = 0x02000000)
T96E8 011:602.920   CPU_ReadMem(4 bytes @ 0x2000050C)
T96E8 011:606.602   Data:  00 00 00 00
T96E8 011:606.635 - 3.725ms returns 4 (0x4)
T96E8 011:606.659 JLINK_ReadMemEx(0x20000510, 0x1 Bytes, Flags = 0x02000000)
T96E8 011:606.670   CPU_ReadMem(1 bytes @ 0x20000510)
T96E8 011:610.146   Data:  01
T96E8 011:610.166 - 3.506ms returns 1 (0x1)
T96E8 011:610.442 JLINK_ReadMemEx(0x20000511, 0x1 Bytes, Flags = 0x02000000)
T96E8 011:610.461   CPU_ReadMem(1 bytes @ 0x20000511)
T96E8 011:613.682   Data:  00
T96E8 011:613.699 - 3.258ms returns 1 (0x1)
T96E8 011:613.724 JLINK_ReadMemEx(0x20000512, 0x1 Bytes, Flags = 0x02000000)
T96E8 011:613.731   CPU_ReadMem(1 bytes @ 0x20000512)
T96E8 011:616.947   Data:  01
T96E8 011:616.979 - 3.255ms returns 1 (0x1)
T96E8 011:617.299 JLINK_ReadMemEx(0x20000513, 0x1 Bytes, Flags = 0x02000000)
T96E8 011:617.314   CPU_ReadMem(1 bytes @ 0x20000513)
T96E8 011:620.423   Data:  00
T96E8 011:620.436 - 3.136ms returns 1 (0x1)
